T59B4 000:028.282   SEGGER J-Link V6.84 Log File
T59B4 000:028.402   DLL Compiled: Sep  4 2020 16:12:50
T59B4 000:028.407   Logging started @ 2026-07-17 09:27
T59B4 000:028.411 - 28.413ms
T59B4 000:028.419 JLINK_SetWarnOutHandler(...)
T59B4 000:028.426 - 0.009ms
T59B4 000:028.432 JLINK_OpenEx(...)
T59B4 000:032.133   Firmware: J-Link V9 compiled May  7 2021 16:26:12
T59B4 000:032.240   Decompressing FW timestamp took 86 us
T59B4 000:038.259   Hardware: V9.70
T59B4 000:038.277   S/N: 609788339
T59B4 000:038.282   OEM: SEGGER
T59B4 000:038.287   Feature(s): GDB, RDI, FlashBP, FlashDL, JFlash
T59B4 000:039.494   TELNET listener socket opened on port 19021
T59B4 000:039.585   WEBSRV Starting webserver
T59B4 000:039.684   WEBSRV Webserver running on local port 19080
T59B4 000:039.691 - 11.261ms returns "O.K."
T59B4 000:039.709 JLINK_SetErrorOutHandler(...)
T59B4 000:039.713 - 0.005ms
T59B4 000:039.721 JLINK_ExecCommand("ProjectFile = "E:\Desktop\XR\bldc\MC_MY_V2.0\JLinkSettings.ini"", ...). 
T59B4 000:044.837   Ref file found at: E:\Keil_v5\ARM\Segger\JLinkDevices.ref
T59B4 000:044.933   REF file references invalid XML file: C:\Program Files (x86)\SEGGER\JLink\JLinkDevices.xml
T59B4 000:049.719   Device "CORTEX-M0" selected.
T59B4 000:050.100 - 10.385ms returns 0x00
T59B4 000:052.719 JLINK_ExecCommand("Device = LKS32MC034FLF6Q8B", ...). 
T59B4 000:055.003   Device "CORTEX-M0" selected.
T59B4 000:055.638 - 2.910ms returns 0x00
T59B4 000:055.653 JLINK_GetHardwareVersion()
T59B4 000:055.657 - 0.005ms returns 97000
T59B4 000:055.664 JLINK_GetDLLVersion()
T59B4 000:055.668 - 0.005ms returns 68400
T59B4 000:055.673 JLINK_GetOEMString(...)
T59B4 000:055.678 JLINK_GetFirmwareString(...)
T59B4 000:055.681 - 0.005ms
T59B4 000:059.548 JLINK_GetDLLVersion()
T59B4 000:059.561 - 0.015ms returns 68400
T59B4 000:059.566 JLINK_GetCompileDateTime()
T59B4 000:059.569 - 0.005ms
T59B4 000:061.866 JLINK_GetFirmwareString(...)
T59B4 000:061.879 - 0.015ms
T59B4 000:063.563 JLINK_GetHardwareVersion()
T59B4 000:063.575 - 0.014ms returns 97000
T59B4 000:064.942 JLINK_GetSN()
T59B4 000:064.955 - 0.014ms returns 609788339
T59B4 000:066.374 JLINK_GetOEMString(...)
T59B4 000:069.408 JLINK_TIF_Select(JLINKARM_TIF_SWD)
T59B4 000:070.764 - 1.361ms returns 0x00
T59B4 000:070.776 JLINK_HasError()
T59B4 000:070.784 JLINK_SetSpeed(2000)
T59B4 000:072.683 - 1.902ms
T59B4 000:072.692 JLINK_GetId()
T59B4 000:075.316   Found SW-DP with ID 0x0BB11477
T59B4 000:079.148   DPIDR: 0x0BB11477
T59B4 000:080.423   Scanning AP map to find all available APs
T59B4 000:082.366   AP[1]: Stopped AP scan as end of AP map has been reached
T59B4 000:083.687   AP[0]: AHB-AP (IDR: 0x04770021)
T59B4 000:085.119   Iterating through AP map to find AHB-AP to use
T59B4 000:087.465   AP[0]: Core found
T59B4 000:088.748   AP[0]: AHB-AP ROM base: 0xE00FF000
T59B4 000:090.564   CPUID register: 0x410CC200. Implementer code: 0x41 (ARM)
T59B4 000:093.089   Found Cortex-M0 r0p0, Little endian.
T59B4 000:194.051   -- Max. mem block: 0x00010B70
T59B4 000:194.112   CPU_ReadMem(4 bytes @ 0xE000EDF0)
T59B4 000:196.483   CPU_ReadMem(4 bytes @ 0xE0002000)
T59B4 000:200.878   FPUnit: 2 code (BP) slots and 0 literal slots
T59B4 000:200.934   CPU_ReadMem(4 bytes @ 0xE000EDFC)
T59B4 000:201.349   CPU_ReadMem(4 bytes @ 0xE0001000)
T59B4 000:201.689   CPU_WriteMem(4 bytes @ 0xE0001000)
T59B4 000:206.365   CoreSight components:
T59B4 000:208.223   ROMTbl[0] @ E00FF000
T59B4 000:208.244   CPU_ReadMem(64 bytes @ 0xE00FF000)
T59B4 000:209.083   CPU_ReadMem(32 bytes @ 0xE000EFE0)
T59B4 000:211.141   ROMTbl[0][0]: E000E000, CID: B105E00D, PID: 000BB008 SCS
T59B4 000:211.159   CPU_ReadMem(32 bytes @ 0xE0001FE0)
T59B4 000:213.139   ROMTbl[0][1]: E0001000, CID: B105E00D, PID: 000BB00A DWT
T59B4 000:213.154   CPU_ReadMem(32 bytes @ 0xE0002FE0)
T59B4 000:215.153   ROMTbl[0][2]: E0002000, CID: B105E00D, PID: 000BB00B FPB
T59B4 000:215.639 - 142.983ms returns 0x0BB11477
T59B4 000:215.759 JLINK_GetDeviceFamily
T59B4 000:215.769 - 0.011ms returns 6
T59B4 000:218.979 JLINK_ReadMem(0xE00FFFF0, 0x10 Bytes, ...)
T59B4 000:219.050   CPU_ReadMem(16 bytes @ 0xE00FFFF0)
T59B4 000:219.518   Data:  0D 00 00 00 10 00 00 00 05 00 00 00 B1 00 00 00
T59B4 000:219.525 - 0.548ms returns 0
T59B4 000:219.532 JLINK_ReadMem(0xE00FFFD0, 0x20 Bytes, ...)
T59B4 000:219.538   CPU_ReadMem(32 bytes @ 0xE00FFFD0)
T59B4 000:220.409   Data:  04 00 00 00 00 00 00 00 00 00 00 00 00 00 00 00 ...
T59B4 000:220.421 - 0.890ms returns 0
T59B4 000:220.429 JLINK_ReadMem(0xE00FF000, 0x18 Bytes, ...)
T59B4 000:220.437   CPU_ReadMem(24 bytes @ 0xE00FF000)
T59B4 000:221.247   Data:  03 F0 F0 FF 03 20 F0 FF 03 30 F0 FF 00 00 00 00 ...
T59B4 000:221.252 - 0.825ms returns 0
T59B4 000:221.262 JLINK_ReadMemU32(0xE000ED00, 0x1 Items)
T59B4 000:221.268   CPU_ReadMem(4 bytes @ 0xE000ED00)
T59B4 000:221.941   Data:  00 C2 0C 41
T59B4 000:221.950   Debug reg: CPUID
T59B4 000:221.955 - 0.694ms returns 1 (0x1)
T59B4 000:221.962 JLINK_HasError()
T59B4 000:221.967 JLINK_SetResetType(JLINKARM_CM3_RESET_TYPE_NORMAL)
T59B4 000:221.971 - 0.005ms returns JLINKARM_CM3_RESET_TYPE_NORMAL
T59B4 000:221.975 JLINK_Reset()
T59B4 000:222.058   CPU is running
T59B4 000:222.064   CPU_WriteMem(4 bytes @ 0xE000EDF0)
T59B4 000:222.732   CPU is running
T59B4 000:222.739   CPU_WriteMem(4 bytes @ 0xE000EDFC)
T59B4 000:224.418   Reset: Halt core after reset via DEMCR.VC_CORERESET.
T59B4 000:226.086   Reset: Reset device via AIRCR.SYSRESETREQ.
T59B4 000:226.101   CPU is running
T59B4 000:226.107   CPU_WriteMem(4 bytes @ 0xE000ED0C)
T59B4 000:279.640   CPU_ReadMem(4 bytes @ 0xE000EDF0)
T59B4 000:280.100   CPU_ReadMem(4 bytes @ 0xE000EDF0)
T59B4 000:280.487   CPU is running
T59B4 000:280.509   CPU_WriteMem(4 bytes @ 0xE000EDF0)
T59B4 000:280.878   CPU is running
T59B4 000:280.897   CPU_WriteMem(4 bytes @ 0xE000EDFC)
T59B4 000:286.966   CPU_ReadMem(4 bytes @ 0xE000EDF0)
T59B4 000:290.847   CPU_WriteMem(4 bytes @ 0xE0002000)
T59B4 000:291.297   CPU_ReadMem(4 bytes @ 0xE000EDFC)
T59B4 000:291.650   CPU_ReadMem(4 bytes @ 0xE0001000)
T59B4 000:292.001   CPU_WriteMem(4 bytes @ 0xE0001000)
T59B4 000:292.384 - 70.417ms
T59B4 000:292.559 JLINK_Halt()
T59B4 000:292.576 - 0.022ms returns 0x00
T59B4 000:292.590 JLINK_IsHalted()
T59B4 000:292.607 - 0.022ms returns TRUE
T59B4 000:292.621 JLINK_ReadMemU32(0xE000EDF0, 0x1 Items)
T59B4 000:292.643   CPU_ReadMem(4 bytes @ 0xE000EDF0)
T59B4 000:293.240   Data:  03 00 03 00
T59B4 000:293.264   Debug reg: DHCSR
T59B4 000:293.281 - 0.665ms returns 1 (0x1)
T59B4 000:293.305 JLINK_WriteU32_64(0xE000EDF0, 0xA05F0003)
T59B4 000:293.318   Debug reg: DHCSR
T59B4 000:293.345   CPU_WriteMem(4 bytes @ 0xE000EDF0)
T59B4 000:294.498 - 1.205ms returns 0 (0x00000000)
T59B4 000:294.550 JLINK_WriteU32_64(0xE000EDFC, 0x01000000)
T59B4 000:294.563   Debug reg: DEMCR
T59B4 000:294.588   CPU_WriteMem(4 bytes @ 0xE000EDFC)
T59B4 000:295.797 - 1.256ms returns 0 (0x00000000)
T59B4 000:311.744 JLINK_GetHWStatus(...)
T59B4 000:314.081 - 2.340ms returns 0
T59B4 000:318.226 JLINK_GetNumBPUnits(Type = 0xFFFFFF00)
T59B4 000:318.244 - 0.021ms returns 0x02
T59B4 000:318.249 JLINK_GetNumBPUnits(Type = 0xF0)
T59B4 000:318.253 - 0.005ms returns 0x2000
T59B4 000:318.257 JLINK_GetNumWPUnits()
T59B4 000:318.261 - 0.005ms returns 2
T59B4 000:322.068 JLINK_GetSpeed()
T59B4 000:322.082 - 0.016ms returns 2000
T59B4 000:324.549 JLINK_ReadMemU32(0xE000E004, 0x1 Items)
T59B4 000:324.570   CPU_ReadMem(4 bytes @ 0xE000E004)
T59B4 000:325.027   Data:  00 00 00 00
T59B4 000:325.034 - 0.487ms returns 1 (0x1)
T59B4 000:325.044 JLINK_Halt()
T59B4 000:325.048 - 0.005ms returns 0x00
T59B4 000:325.052 JLINK_IsHalted()
T59B4 000:325.056 - 0.005ms returns TRUE
T59B4 000:328.906 JLINK_WriteMem(0x20000000, 0x19C Bytes, ...)
T59B4 000:328.914   Data:  00 BE 0A E0 0D 78 2D 06 68 40 08 24 40 00 00 D3 ...
T59B4 000:329.112   CPU_WriteMem(412 bytes @ 0x20000000)
T59B4 000:332.692 - 3.805ms returns 0x19C
T59B4 000:332.816 JLINK_HasError()
T59B4 000:332.821 JLINK_WriteReg(R0, 0x00000000)
T59B4 000:332.831 - 0.043ms returns 0
T59B4 000:332.869 JLINK_WriteReg(R1, 0x00B71B00)
T59B4 000:332.873 - 0.005ms returns 0
T59B4 000:332.877 JLINK_WriteReg(R2, 0x00000001)
T59B4 000:332.881 - 0.005ms returns 0
T59B4 000:332.885 JLINK_WriteReg(R3, 0x00000000)
T59B4 000:332.888 - 0.005ms returns 0
T59B4 000:332.892 JLINK_WriteReg(R4, 0x00000000)
T59B4 000:332.896 - 0.005ms returns 0
T59B4 000:332.900 JLINK_WriteReg(R5, 0x00000000)
T59B4 000:332.903 - 0.005ms returns 0
T59B4 000:332.907 JLINK_WriteReg(R6, 0x00000000)
T59B4 000:332.911 - 0.005ms returns 0
T59B4 000:332.914 JLINK_WriteReg(R7, 0x00000000)
T59B4 000:332.918 - 0.005ms returns 0
T59B4 000:332.922 JLINK_WriteReg(R8, 0x00000000)
T59B4 000:332.927 - 0.006ms returns 0
T59B4 000:332.931 JLINK_WriteReg(R9, 0x20000198)
T59B4 000:332.934 - 0.005ms returns 0
T59B4 000:332.938 JLINK_WriteReg(R10, 0x00000000)
T59B4 000:332.942 - 0.005ms returns 0
T59B4 000:332.946 JLINK_WriteReg(R11, 0x00000000)
T59B4 000:332.949 - 0.005ms returns 0
T59B4 000:332.953 JLINK_WriteReg(R12, 0x00000000)
T59B4 000:332.957 - 0.005ms returns 0
T59B4 000:332.961 JLINK_WriteReg(R13 (SP), 0x20000800)
T59B4 000:332.965 - 0.005ms returns 0
T59B4 000:332.968 JLINK_WriteReg(R14, 0x20000001)
T59B4 000:332.972 - 0.005ms returns 0
T59B4 000:332.976 JLINK_WriteReg(R15 (PC), 0x20000040)
T59B4 000:332.980 - 0.005ms returns 0
T59B4 000:332.984 JLINK_WriteReg(XPSR, 0x01000000)
T59B4 000:332.987 - 0.005ms returns 0
T59B4 000:332.991 JLINK_WriteReg(MSP, 0x20000800)
T59B4 000:332.995 - 0.005ms returns 0
T59B4 000:332.999 JLINK_WriteReg(PSP, 0x20000800)
T59B4 000:333.002 - 0.005ms returns 0
T59B4 000:333.006 JLINK_WriteReg(CFBP, 0x00000000)
T59B4 000:333.010 - 0.005ms returns 0
T59B4 000:333.014 JLINK_SetBPEx(Addr = 0x20000000, Type = 0xFFFFFFF2)
T59B4 000:333.019   CPU_ReadMem(4 bytes @ 0x20000000)
T59B4 000:333.474   CPU_WriteMem(4 bytes @ 0x20000000)
T59B4 000:333.865   CPU_ReadMem(4 bytes @ 0x20000000)
T59B4 000:334.217   CPU_WriteMem(4 bytes @ 0x20000000)
T59B4 000:334.614   CPU_ReadMem(2 bytes @ 0x20000000)
T59B4 000:334.961 - 1.949ms returns 0x00000001
T59B4 000:334.969 JLINK_Go()
T59B4 000:334.975   CPU_WriteMem(2 bytes @ 0x20000000)
T59B4 000:335.725   CPU_ReadMem(4 bytes @ 0xE0001000)
T59B4 000:336.073   CPU_WriteMem(4 bytes @ 0xE0001000)
T59B4 000:336.079   CPU_WriteMem(4 bytes @ 0xE0002008)
T59B4 000:336.084   CPU_WriteMem(4 bytes @ 0xE000200C)
T59B4 000:336.904   CPU_WriteMem(4 bytes @ 0xE0001004)
T59B4 000:340.428 - 5.462ms
T59B4 000:340.437 JLINK_IsHalted()
T59B4 000:344.215   CPU_ReadMem(2 bytes @ 0x20000000)
T59B4 000:344.496 - 4.061ms returns TRUE
T59B4 000:344.544 JLINK_ReadReg(R15 (PC))
T59B4 000:344.561 - 0.018ms returns 0x20000000
T59B4 000:344.566 JLINK_ClrBPEx(BPHandle = 0x00000001)
T59B4 000:344.570 - 0.006ms returns 0x00
T59B4 000:344.574 JLINK_ReadReg(R0)
T59B4 000:344.578 - 0.005ms returns 0x00000000
T59B4 000:344.766 JLINK_HasError()
T59B4 000:344.775 JLINK_WriteReg(R0, 0x00000000)
T59B4 000:344.780 - 0.006ms returns 0
T59B4 000:344.784 JLINK_WriteReg(R1, 0x00000200)
T59B4 000:344.788 - 0.005ms returns 0
T59B4 000:344.791 JLINK_WriteReg(R2, 0x000000FF)
T59B4 000:344.795 - 0.005ms returns 0
T59B4 000:344.799 JLINK_WriteReg(R3, 0x00000000)
T59B4 000:344.802 - 0.005ms returns 0
T59B4 000:344.806 JLINK_WriteReg(R4, 0x00000000)
T59B4 000:344.810 - 0.005ms returns 0
T59B4 000:344.814 JLINK_WriteReg(R5, 0x00000000)
T59B4 000:344.818 - 0.005ms returns 0
T59B4 000:344.821 JLINK_WriteReg(R6, 0x00000000)
T59B4 000:344.825 - 0.005ms returns 0
T59B4 000:344.829 JLINK_WriteReg(R7, 0x00000000)
T59B4 000:344.832 - 0.005ms returns 0
T59B4 000:344.846 JLINK_WriteReg(R8, 0x00000000)
T59B4 000:344.850 - 0.005ms returns 0
T59B4 000:344.854 JLINK_WriteReg(R9, 0x20000198)
T59B4 000:344.857 - 0.005ms returns 0
T59B4 000:344.861 JLINK_WriteReg(R10, 0x00000000)
T59B4 000:344.865 - 0.005ms returns 0
T59B4 000:344.869 JLINK_WriteReg(R11, 0x00000000)
T59B4 000:344.872 - 0.005ms returns 0
T59B4 000:344.876 JLINK_WriteReg(R12, 0x00000000)
T59B4 000:344.880 - 0.008ms returns 0
T59B4 000:344.889 JLINK_WriteReg(R13 (SP), 0x20000800)
T59B4 000:344.892 - 0.005ms returns 0
T59B4 000:344.897 JLINK_WriteReg(R14, 0x20000001)
T59B4 000:344.900 - 0.005ms returns 0
T59B4 000:344.904 JLINK_WriteReg(R15 (PC), 0x20000020)
T59B4 000:344.908 - 0.005ms returns 0
T59B4 000:344.912 JLINK_WriteReg(XPSR, 0x01000000)
T59B4 000:344.915 - 0.005ms returns 0
T59B4 000:344.919 JLINK_WriteReg(MSP, 0x20000800)
T59B4 000:344.923 - 0.005ms returns 0
T59B4 000:344.927 JLINK_WriteReg(PSP, 0x20000800)
T59B4 000:344.930 - 0.005ms returns 0
T59B4 000:344.934 JLINK_WriteReg(CFBP, 0x00000000)
T59B4 000:344.938 - 0.005ms returns 0
T59B4 000:344.941 JLINK_SetBPEx(Addr = 0x20000000, Type = 0xFFFFFFF2)
T59B4 000:344.946 - 0.006ms returns 0x00000002
T59B4 000:344.950 JLINK_Go()
T59B4 000:344.958   CPU_ReadMem(4 bytes @ 0xE0001000)
T59B4 000:345.626   CPU_WriteMem(4 bytes @ 0xE0001000)
T59B4 000:349.020 - 4.072ms
T59B4 000:349.029 JLINK_IsHalted()
T59B4 000:352.720   CPU_ReadMem(2 bytes @ 0x20000000)
T59B4 000:353.007 - 3.981ms returns TRUE
T59B4 000:353.017 JLINK_ReadReg(R15 (PC))
T59B4 000:353.023 - 0.008ms returns 0x20000000
T59B4 000:353.029 JLINK_ClrBPEx(BPHandle = 0x00000002)
T59B4 000:353.033 - 0.007ms returns 0x00
T59B4 000:353.039 JLINK_ReadReg(R0)
T59B4 000:353.043 - 0.006ms returns 0x00000001
T59B4 000:353.049 JLINK_HasError()
T59B4 000:353.054 JLINK_WriteReg(R0, 0x00000000)
T59B4 000:353.059 - 0.007ms returns 0
T59B4 000:353.064 JLINK_WriteReg(R1, 0x00000200)
T59B4 000:353.069 - 0.007ms returns 0
T59B4 000:353.074 JLINK_WriteReg(R2, 0x000000FF)
T59B4 000:353.079 - 0.006ms returns 0
T59B4 000:353.084 JLINK_WriteReg(R3, 0x00000000)
T59B4 000:353.088 - 0.006ms returns 0
T59B4 000:353.093 JLINK_WriteReg(R4, 0x00000000)
T59B4 000:353.098 - 0.006ms returns 0
T59B4 000:353.103 JLINK_WriteReg(R5, 0x00000000)
T59B4 000:353.107 - 0.006ms returns 0
T59B4 000:353.113 JLINK_WriteReg(R6, 0x00000000)
T59B4 000:353.117 - 0.006ms returns 0
T59B4 000:353.122 JLINK_WriteReg(R7, 0x00000000)
T59B4 000:353.127 - 0.007ms returns 0
T59B4 000:353.132 JLINK_WriteReg(R8, 0x00000000)
T59B4 000:353.136 - 0.006ms returns 0
T59B4 000:353.141 JLINK_WriteReg(R9, 0x20000198)
T59B4 000:353.146 - 0.006ms returns 0
T59B4 000:353.151 JLINK_WriteReg(R10, 0x00000000)
T59B4 000:353.155 - 0.006ms returns 0
T59B4 000:353.161 JLINK_WriteReg(R11, 0x00000000)
T59B4 000:353.165 - 0.006ms returns 0
T59B4 000:353.170 JLINK_WriteReg(R12, 0x00000000)
T59B4 000:353.175 - 0.006ms returns 0
T59B4 000:353.180 JLINK_WriteReg(R13 (SP), 0x20000800)
T59B4 000:353.184 - 0.007ms returns 0
T59B4 000:353.189 JLINK_WriteReg(R14, 0x20000001)
T59B4 000:353.194 - 0.006ms returns 0
T59B4 000:353.199 JLINK_WriteReg(R15 (PC), 0x200000B0)
T59B4 000:353.204 - 0.006ms returns 0
T59B4 000:353.209 JLINK_WriteReg(XPSR, 0x01000000)
T59B4 000:353.213 - 0.006ms returns 0
T59B4 000:353.218 JLINK_WriteReg(MSP, 0x20000800)
T59B4 000:353.223 - 0.006ms returns 0
T59B4 000:353.228 JLINK_WriteReg(PSP, 0x20000800)
T59B4 000:353.232 - 0.006ms returns 0
T59B4 000:353.238 JLINK_WriteReg(CFBP, 0x00000000)
T59B4 000:353.242 - 0.006ms returns 0
T59B4 000:353.247 JLINK_SetBPEx(Addr = 0x20000000, Type = 0xFFFFFFF2)
T59B4 000:353.252 - 0.007ms returns 0x00000003
T59B4 000:353.257 JLINK_Go()
T59B4 000:353.264   CPU_ReadMem(4 bytes @ 0xE0001000)
T59B4 000:353.756   CPU_WriteMem(4 bytes @ 0xE0001000)
T59B4 000:357.248 - 3.997ms
T59B4 000:357.263 JLINK_IsHalted()
T59B4 000:365.462   CPU_ReadMem(2 bytes @ 0x20000000)
T59B4 000:365.829 - 8.571ms returns TRUE
T59B4 000:365.845 JLINK_ReadReg(R15 (PC))
T59B4 000:365.854 - 0.012ms returns 0x20000000
T59B4 000:365.862 JLINK_ClrBPEx(BPHandle = 0x00000003)
T59B4 000:365.869 - 0.010ms returns 0x00
T59B4 000:365.877 JLINK_ReadReg(R0)
T59B4 000:365.884 - 0.009ms returns 0x00000000
T59B4 000:366.341 JLINK_HasError()
T59B4 000:366.358 JLINK_WriteReg(R0, 0x00000200)
T59B4 000:366.367 - 0.012ms returns 0
T59B4 000:366.380 JLINK_WriteReg(R1, 0x00000200)
T59B4 000:366.388 - 0.015ms returns 0
T59B4 000:366.426 JLINK_WriteReg(R2, 0x000000FF)
T59B4 000:366.482 - 0.059ms returns 0
T59B4 000:366.491 JLINK_WriteReg(R3, 0x00000000)
T59B4 000:366.498 - 0.010ms returns 0
T59B4 000:366.506 JLINK_WriteReg(R4, 0x00000000)
T59B4 000:366.513 - 0.009ms returns 0
T59B4 000:366.520 JLINK_WriteReg(R5, 0x00000000)
T59B4 000:366.527 - 0.009ms returns 0
T59B4 000:366.534 JLINK_WriteReg(R6, 0x00000000)
T59B4 000:366.540 - 0.009ms returns 0
T59B4 000:366.547 JLINK_WriteReg(R7, 0x00000000)
T59B4 000:366.554 - 0.009ms returns 0
T59B4 000:366.561 JLINK_WriteReg(R8, 0x00000000)
T59B4 000:366.567 - 0.009ms returns 0
T59B4 000:366.574 JLINK_WriteReg(R9, 0x20000198)
T59B4 000:366.581 - 0.009ms returns 0
T59B4 000:366.588 JLINK_WriteReg(R10, 0x00000000)
T59B4 000:366.594 - 0.009ms returns 0
T59B4 000:366.601 JLINK_WriteReg(R11, 0x00000000)
T59B4 000:366.608 - 0.009ms returns 0
T59B4 000:366.615 JLINK_WriteReg(R12, 0x00000000)
T59B4 000:366.626 - 0.014ms returns 0
T59B4 000:366.633 JLINK_WriteReg(R13 (SP), 0x20000800)
T59B4 000:366.640 - 0.009ms returns 0
T59B4 000:366.647 JLINK_WriteReg(R14, 0x20000001)
T59B4 000:366.653 - 0.009ms returns 0
T59B4 000:366.660 JLINK_WriteReg(R15 (PC), 0x20000020)
T59B4 000:366.667 - 0.009ms returns 0
T59B4 000:366.674 JLINK_WriteReg(XPSR, 0x01000000)
T59B4 000:366.681 - 0.009ms returns 0
T59B4 000:366.688 JLINK_WriteReg(MSP, 0x20000800)
T59B4 000:366.694 - 0.009ms returns 0
T59B4 000:366.701 JLINK_WriteReg(PSP, 0x20000800)
T59B4 000:366.708 - 0.009ms returns 0
T59B4 000:366.715 JLINK_WriteReg(CFBP, 0x00000000)
T59B4 000:366.721 - 0.009ms returns 0
T59B4 000:366.729 JLINK_SetBPEx(Addr = 0x20000000, Type = 0xFFFFFFF2)
T59B4 000:366.737 - 0.011ms returns 0x00000004
T59B4 000:366.744 JLINK_Go()
T59B4 000:366.756   CPU_ReadMem(4 bytes @ 0xE0001000)
T59B4 000:367.466   CPU_WriteMem(4 bytes @ 0xE0001000)
T59B4 000:371.006 - 4.272ms
T59B4 000:371.048 JLINK_IsHalted()
T59B4 000:375.146   CPU_ReadMem(2 bytes @ 0x20000000)
T59B4 000:375.461 - 4.418ms returns TRUE
T59B4 000:375.481 JLINK_ReadReg(R15 (PC))
T59B4 000:375.491 - 0.013ms returns 0x20000000
T59B4 000:375.504 JLINK_ClrBPEx(BPHandle = 0x00000004)
T59B4 000:375.512 - 0.011ms returns 0x00
T59B4 000:375.524 JLINK_ReadReg(R0)
T59B4 000:375.533 - 0.012ms returns 0x00000001
T59B4 000:375.545 JLINK_HasError()
T59B4 000:375.630 JLINK_WriteReg(R0, 0x00000200)
T59B4 000:375.644 - 0.016ms returns 0
T59B4 000:375.652 JLINK_WriteReg(R1, 0x00000200)
T59B4 000:375.660 - 0.011ms returns 0
T59B4 000:375.668 JLINK_WriteReg(R2, 0x000000FF)
T59B4 000:375.676 - 0.010ms returns 0
T59B4 000:375.684 JLINK_WriteReg(R3, 0x00000000)
T59B4 000:375.692 - 0.011ms returns 0
T59B4 000:375.700 JLINK_WriteReg(R4, 0x00000000)
T59B4 000:375.707 - 0.010ms returns 0
T59B4 000:375.716 JLINK_WriteReg(R5, 0x00000000)
T59B4 000:375.723 - 0.010ms returns 0
T59B4 000:375.731 JLINK_WriteReg(R6, 0x00000000)
T59B4 000:375.739 - 0.011ms returns 0
T59B4 000:375.747 JLINK_WriteReg(R7, 0x00000000)
T59B4 000:375.755 - 0.010ms returns 0
T59B4 000:375.763 JLINK_WriteReg(R8, 0x00000000)
T59B4 000:375.770 - 0.010ms returns 0
T59B4 000:375.779 JLINK_WriteReg(R9, 0x20000198)
T59B4 000:375.786 - 0.010ms returns 0
T59B4 000:375.794 JLINK_WriteReg(R10, 0x00000000)
T59B4 000:375.802 - 0.010ms returns 0
T59B4 000:375.810 JLINK_WriteReg(R11, 0x00000000)
T59B4 000:375.817 - 0.011ms returns 0
T59B4 000:375.826 JLINK_WriteReg(R12, 0x00000000)
T59B4 000:375.839 - 0.019ms returns 0
T59B4 000:375.850 JLINK_WriteReg(R13 (SP), 0x20000800)
T59B4 000:375.859 - 0.012ms returns 0
T59B4 000:375.867 JLINK_WriteReg(R14, 0x20000001)
T59B4 000:375.875 - 0.011ms returns 0
T59B4 000:375.884 JLINK_WriteReg(R15 (PC), 0x200000B0)
T59B4 000:375.892 - 0.011ms returns 0
T59B4 000:375.900 JLINK_WriteReg(XPSR, 0x01000000)
T59B4 000:375.908 - 0.011ms returns 0
T59B4 000:375.917 JLINK_WriteReg(MSP, 0x20000800)
T59B4 000:375.925 - 0.011ms returns 0
T59B4 000:375.933 JLINK_WriteReg(PSP, 0x20000800)
T59B4 000:375.941 - 0.011ms returns 0
T59B4 000:375.950 JLINK_WriteReg(CFBP, 0x00000000)
T59B4 000:375.966 - 0.020ms returns 0
T59B4 000:375.975 JLINK_SetBPEx(Addr = 0x20000000, Type = 0xFFFFFFF2)
T59B4 000:375.984 - 0.012ms returns 0x00000005
T59B4 000:375.993 JLINK_Go()
T59B4 000:376.006   CPU_ReadMem(4 bytes @ 0xE0001000)
T59B4 000:376.460   CPU_WriteMem(4 bytes @ 0xE0001000)
T59B4 000:380.013 - 4.027ms
T59B4 000:380.032 JLINK_IsHalted()
T59B4 000:388.188   CPU_ReadMem(2 bytes @ 0x20000000)
T59B4 000:388.626 - 8.603ms returns TRUE
T59B4 000:388.651 JLINK_ReadReg(R15 (PC))
T59B4 000:388.667 - 0.022ms returns 0x20000000
T59B4 000:388.682 JLINK_ClrBPEx(BPHandle = 0x00000005)
T59B4 000:388.695 - 0.018ms returns 0x00
T59B4 000:388.709 JLINK_ReadReg(R0)
T59B4 000:388.720 - 0.017ms returns 0x00000000
T59B4 000:391.550 JLINK_HasError()
T59B4 000:391.649 JLINK_WriteReg(R0, 0x00000400)
T59B4 000:391.667 - 0.034ms returns 0
T59B4 000:391.692 JLINK_WriteReg(R1, 0x00000200)
T59B4 000:391.704 - 0.018ms returns 0
T59B4 000:391.718 JLINK_WriteReg(R2, 0x000000FF)
T59B4 000:391.730 - 0.017ms returns 0
T59B4 000:391.743 JLINK_WriteReg(R3, 0x00000000)
T59B4 000:391.759 - 0.022ms returns 0
T59B4 000:391.807 JLINK_WriteReg(R4, 0x00000000)
T59B4 000:392.013 - 0.213ms returns 0
T59B4 000:392.028 JLINK_WriteReg(R5, 0x00000000)
T59B4 000:392.039 - 0.016ms returns 0
T59B4 000:392.053 JLINK_WriteReg(R6, 0x00000000)
T59B4 000:392.064 - 0.048ms returns 0
T59B4 000:392.220 JLINK_WriteReg(R7, 0x00000000)
T59B4 000:392.414 - 0.202ms returns 0
T59B4 000:392.430 JLINK_WriteReg(R8, 0x00000000)
T59B4 000:392.468 - 0.071ms returns 0
T59B4 000:392.573 JLINK_WriteReg(R9, 0x20000198)
T59B4 000:392.592 - 0.026ms returns 0
T59B4 000:392.607 JLINK_WriteReg(R10, 0x00000000)
T59B4 000:392.618 - 0.015ms returns 0
T59B4 000:392.629 JLINK_WriteReg(R11, 0x00000000)
T59B4 000:392.639 - 0.015ms returns 0
T59B4 000:392.651 JLINK_WriteReg(R12, 0x00000000)
T59B4 000:392.662 - 0.016ms returns 0
T59B4 000:392.674 JLINK_WriteReg(R13 (SP), 0x20000800)
T59B4 000:392.686 - 0.016ms returns 0
T59B4 000:392.697 JLINK_WriteReg(R14, 0x20000001)
T59B4 000:392.708 - 0.015ms returns 0
T59B4 000:392.720 JLINK_WriteReg(R15 (PC), 0x20000020)
T59B4 000:392.731 - 0.016ms returns 0
T59B4 000:392.742 JLINK_WriteReg(XPSR, 0x01000000)
T59B4 000:392.753 - 0.015ms returns 0
T59B4 000:392.790 JLINK_WriteReg(MSP, 0x20000800)
T59B4 000:392.802 - 0.017ms returns 0
T59B4 000:392.814 JLINK_WriteReg(PSP, 0x20000800)
T59B4 000:392.825 - 0.037ms returns 0
T59B4 000:392.861 JLINK_WriteReg(CFBP, 0x00000000)
T59B4 000:392.873 - 0.017ms returns 0
T59B4 000:392.886 JLINK_SetBPEx(Addr = 0x20000000, Type = 0xFFFFFFF2)
T59B4 000:392.901 - 0.021ms returns 0x00000006
T59B4 000:392.942 JLINK_Go()
T59B4 000:393.131   CPU_ReadMem(4 bytes @ 0xE0001000)
T59B4 000:394.113   CPU_WriteMem(4 bytes @ 0xE0001000)
T59B4 000:397.613 - 4.678ms
T59B4 000:397.634 JLINK_IsHalted()
T59B4 000:401.429   CPU_ReadMem(2 bytes @ 0x20000000)
T59B4 000:401.909 - 4.307ms returns TRUE
T59B4 000:402.046 JLINK_ReadReg(R15 (PC))
T59B4 000:402.072 - 0.033ms returns 0x20000000
T59B4 000:402.107 JLINK_ClrBPEx(BPHandle = 0x00000006)
T59B4 000:402.122 - 0.020ms returns 0x00
T59B4 000:402.141 JLINK_ReadReg(R0)
T59B4 000:402.158 - 0.023ms returns 0x00000001
T59B4 000:402.176 JLINK_HasError()
T59B4 000:402.306 JLINK_WriteReg(R0, 0x00000400)
T59B4 000:402.324 - 0.023ms returns 0
T59B4 000:402.337 JLINK_WriteReg(R1, 0x00000200)
T59B4 000:402.354 - 0.021ms returns 0
T59B4 000:402.366 JLINK_WriteReg(R2, 0x000000FF)
T59B4 000:402.377 - 0.016ms returns 0
T59B4 000:402.390 JLINK_WriteReg(R3, 0x00000000)
T59B4 000:402.401 - 0.016ms returns 0
T59B4 000:402.413 JLINK_WriteReg(R4, 0x00000000)
T59B4 000:402.424 - 0.016ms returns 0
T59B4 000:402.436 JLINK_WriteReg(R5, 0x00000000)
T59B4 000:402.447 - 0.016ms returns 0
T59B4 000:402.459 JLINK_WriteReg(R6, 0x00000000)
T59B4 000:402.470 - 0.016ms returns 0
T59B4 000:402.482 JLINK_WriteReg(R7, 0x00000000)
T59B4 000:402.494 - 0.017ms returns 0
T59B4 000:402.508 JLINK_WriteReg(R8, 0x00000000)
T59B4 000:402.527 - 0.029ms returns 0
T59B4 000:402.544 JLINK_WriteReg(R9, 0x20000198)
T59B4 000:402.622 - 0.176ms returns 0
T59B4 000:402.735 JLINK_WriteReg(R10, 0x00000000)
T59B4 000:402.752 - 0.023ms returns 0
T59B4 000:402.787 JLINK_WriteReg(R11, 0x00000000)
T59B4 000:402.888 - 0.106ms returns 0
T59B4 000:402.902 JLINK_WriteReg(R12, 0x00000000)
T59B4 000:402.915 - 0.018ms returns 0
T59B4 000:402.928 JLINK_WriteReg(R13 (SP), 0x20000800)
T59B4 000:402.941 - 0.018ms returns 0
T59B4 000:402.953 JLINK_WriteReg(R14, 0x20000001)
T59B4 000:402.963 - 0.015ms returns 0
T59B4 000:402.975 JLINK_WriteReg(R15 (PC), 0x200000B0)
T59B4 000:402.986 - 0.022ms returns 0
T59B4 000:403.004 JLINK_WriteReg(XPSR, 0x01000000)
T59B4 000:403.015 - 0.015ms returns 0
T59B4 000:403.028 JLINK_WriteReg(MSP, 0x20000800)
T59B4 000:403.039 - 0.041ms returns 0
T59B4 000:403.115 JLINK_WriteReg(PSP, 0x20000800)
T59B4 000:403.175 - 0.110ms returns 0
T59B4 000:403.237 JLINK_WriteReg(CFBP, 0x00000000)
T59B4 000:403.344 - 0.114ms returns 0
T59B4 000:403.360 JLINK_SetBPEx(Addr = 0x20000000, Type = 0xFFFFFFF2)
T59B4 000:403.373 - 0.018ms returns 0x00000007
T59B4 000:403.385 JLINK_Go()
T59B4 000:403.403   CPU_ReadMem(4 bytes @ 0xE0001000)
T59B4 000:404.224   CPU_WriteMem(4 bytes @ 0xE0001000)
T59B4 000:407.829 - 4.472ms
T59B4 000:407.877 JLINK_IsHalted()
T59B4 000:415.990   CPU_ReadMem(2 bytes @ 0x20000000)
T59B4 000:416.468 - 8.600ms returns TRUE
T59B4 000:416.492 JLINK_ReadReg(R15 (PC))
T59B4 000:416.506 - 0.019ms returns 0x20000000
T59B4 000:416.519 JLINK_ClrBPEx(BPHandle = 0x00000007)
T59B4 000:416.532 - 0.017ms returns 0x00
T59B4 000:416.545 JLINK_ReadReg(R0)
T59B4 000:416.557 - 0.017ms returns 0x00000000
T59B4 000:419.361 JLINK_HasError()
T59B4 000:419.394 JLINK_WriteReg(R0, 0x00000600)
T59B4 000:419.411 - 0.021ms returns 0
T59B4 000:419.422 JLINK_WriteReg(R1, 0x00000200)
T59B4 000:419.433 - 0.015ms returns 0
T59B4 000:419.445 JLINK_WriteReg(R2, 0x000000FF)
T59B4 000:419.455 - 0.014ms returns 0
T59B4 000:419.466 JLINK_WriteReg(R3, 0x00000000)
T59B4 000:419.476 - 0.014ms returns 0
T59B4 000:419.487 JLINK_WriteReg(R4, 0x00000000)
T59B4 000:419.496 - 0.014ms returns 0
T59B4 000:419.507 JLINK_WriteReg(R5, 0x00000000)
T59B4 000:419.517 - 0.014ms returns 0
T59B4 000:419.528 JLINK_WriteReg(R6, 0x00000000)
T59B4 000:419.538 - 0.014ms returns 0
T59B4 000:419.549 JLINK_WriteReg(R7, 0x00000000)
T59B4 000:419.559 - 0.014ms returns 0
T59B4 000:419.570 JLINK_WriteReg(R8, 0x00000000)
T59B4 000:419.579 - 0.014ms returns 0
T59B4 000:419.590 JLINK_WriteReg(R9, 0x20000198)
T59B4 000:419.600 - 0.014ms returns 0
T59B4 000:419.611 JLINK_WriteReg(R10, 0x00000000)
T59B4 000:419.621 - 0.014ms returns 0
T59B4 000:419.632 JLINK_WriteReg(R11, 0x00000000)
T59B4 000:419.641 - 0.014ms returns 0
T59B4 000:419.652 JLINK_WriteReg(R12, 0x00000000)
T59B4 000:419.662 - 0.014ms returns 0
T59B4 000:419.672 JLINK_WriteReg(R13 (SP), 0x20000800)
T59B4 000:419.683 - 0.015ms returns 0
T59B4 000:419.694 JLINK_WriteReg(R14, 0x20000001)
T59B4 000:419.704 - 0.014ms returns 0
T59B4 000:419.715 JLINK_WriteReg(R15 (PC), 0x20000020)
T59B4 000:419.725 - 0.014ms returns 0
T59B4 000:419.736 JLINK_WriteReg(XPSR, 0x01000000)
T59B4 000:419.745 - 0.014ms returns 0
T59B4 000:419.756 JLINK_WriteReg(MSP, 0x20000800)
T59B4 000:419.766 - 0.014ms returns 0
T59B4 000:419.776 JLINK_WriteReg(PSP, 0x20000800)
T59B4 000:419.786 - 0.014ms returns 0
T59B4 000:419.797 JLINK_WriteReg(CFBP, 0x00000000)
T59B4 000:419.807 - 0.014ms returns 0
T59B4 000:419.817 JLINK_SetBPEx(Addr = 0x20000000, Type = 0xFFFFFFF2)
T59B4 000:419.830 - 0.016ms returns 0x00000008
T59B4 000:419.841 JLINK_Go()
T59B4 000:419.861   CPU_ReadMem(4 bytes @ 0xE0001000)
T59B4 000:420.340   CPU_WriteMem(4 bytes @ 0xE0001000)
T59B4 000:423.812 - 3.994ms
T59B4 000:423.851 JLINK_IsHalted()
T59B4 000:427.718   CPU_ReadMem(2 bytes @ 0x20000000)
T59B4 000:428.116 - 4.272ms returns TRUE
T59B4 000:428.149 JLINK_ReadReg(R15 (PC))
T59B4 000:428.164 - 0.020ms returns 0x20000000
T59B4 000:428.191 JLINK_ClrBPEx(BPHandle = 0x00000008)
T59B4 000:428.209 - 0.022ms returns 0x00
T59B4 000:428.228 JLINK_ReadReg(R0)
T59B4 000:428.241 - 0.017ms returns 0x00000001
T59B4 000:428.260 JLINK_HasError()
T59B4 000:428.384 JLINK_WriteReg(R0, 0x00000600)
T59B4 000:428.400 - 0.021ms returns 0
T59B4 000:428.413 JLINK_WriteReg(R1, 0x00000200)
T59B4 000:428.425 - 0.017ms returns 0
T59B4 000:428.438 JLINK_WriteReg(R2, 0x000000FF)
T59B4 000:428.450 - 0.018ms returns 0
T59B4 000:428.464 JLINK_WriteReg(R3, 0x00000000)
T59B4 000:428.475 - 0.016ms returns 0
T59B4 000:428.488 JLINK_WriteReg(R4, 0x00000000)
T59B4 000:428.499 - 0.017ms returns 0
T59B4 000:428.513 JLINK_WriteReg(R5, 0x00000000)
T59B4 000:428.534 - 0.027ms returns 0
T59B4 000:428.548 JLINK_WriteReg(R6, 0x00000000)
T59B4 000:428.561 - 0.017ms returns 0
T59B4 000:428.574 JLINK_WriteReg(R7, 0x00000000)
T59B4 000:428.585 - 0.017ms returns 0
T59B4 000:428.598 JLINK_WriteReg(R8, 0x00000000)
T59B4 000:428.610 - 0.017ms returns 0
T59B4 000:428.623 JLINK_WriteReg(R9, 0x20000198)
T59B4 000:428.635 - 0.017ms returns 0
T59B4 000:428.648 JLINK_WriteReg(R10, 0x00000000)
T59B4 000:428.659 - 0.017ms returns 0
T59B4 000:428.673 JLINK_WriteReg(R11, 0x00000000)
T59B4 000:428.684 - 0.017ms returns 0
T59B4 000:428.697 JLINK_WriteReg(R12, 0x00000000)
T59B4 000:428.709 - 0.017ms returns 0
T59B4 000:428.722 JLINK_WriteReg(R13 (SP), 0x20000800)
T59B4 000:428.734 - 0.017ms returns 0
T59B4 000:428.747 JLINK_WriteReg(R14, 0x20000001)
T59B4 000:428.758 - 0.017ms returns 0
T59B4 000:428.772 JLINK_WriteReg(R15 (PC), 0x200000B0)
T59B4 000:428.784 - 0.017ms returns 0
T59B4 000:428.797 JLINK_WriteReg(XPSR, 0x01000000)
T59B4 000:428.808 - 0.017ms returns 0
T59B4 000:428.821 JLINK_WriteReg(MSP, 0x20000800)
T59B4 000:428.833 - 0.017ms returns 0
T59B4 000:428.846 JLINK_WriteReg(PSP, 0x20000800)
T59B4 000:428.858 - 0.017ms returns 0
T59B4 000:428.871 JLINK_WriteReg(CFBP, 0x00000000)
T59B4 000:428.882 - 0.017ms returns 0
T59B4 000:428.896 JLINK_SetBPEx(Addr = 0x20000000, Type = 0xFFFFFFF2)
T59B4 000:428.910 - 0.019ms returns 0x00000009
T59B4 000:428.923 JLINK_Go()
T59B4 000:428.941   CPU_ReadMem(4 bytes @ 0xE0001000)
T59B4 000:429.341   CPU_WriteMem(4 bytes @ 0xE0001000)
T59B4 000:432.921 - 4.041ms
T59B4 000:432.990 JLINK_IsHalted()
T59B4 000:441.577   CPU_ReadMem(2 bytes @ 0x20000000)
T59B4 000:442.021 - 9.039ms returns TRUE
T59B4 000:442.073 JLINK_ReadReg(R15 (PC))
T59B4 000:442.090 - 0.022ms returns 0x20000000
T59B4 000:442.105 JLINK_ClrBPEx(BPHandle = 0x00000009)
T59B4 000:442.118 - 0.018ms returns 0x00
T59B4 000:442.132 JLINK_ReadReg(R0)
T59B4 000:442.145 - 0.018ms returns 0x00000000
T59B4 000:443.012 JLINK_HasError()
T59B4 000:443.042 JLINK_WriteReg(R0, 0x00000800)
T59B4 000:443.059 - 0.022ms returns 0
T59B4 000:443.073 JLINK_WriteReg(R1, 0x00000200)
T59B4 000:443.085 - 0.017ms returns 0
T59B4 000:443.098 JLINK_WriteReg(R2, 0x000000FF)
T59B4 000:443.110 - 0.017ms returns 0
T59B4 000:443.123 JLINK_WriteReg(R3, 0x00000000)
T59B4 000:443.135 - 0.016ms returns 0
T59B4 000:443.148 JLINK_WriteReg(R4, 0x00000000)
T59B4 000:443.159 - 0.017ms returns 0
T59B4 000:443.172 JLINK_WriteReg(R5, 0x00000000)
T59B4 000:443.184 - 0.016ms returns 0
T59B4 000:443.197 JLINK_WriteReg(R6, 0x00000000)
T59B4 000:443.208 - 0.016ms returns 0
T59B4 000:443.221 JLINK_WriteReg(R7, 0x00000000)
T59B4 000:443.233 - 0.017ms returns 0
T59B4 000:443.246 JLINK_WriteReg(R8, 0x00000000)
T59B4 000:443.258 - 0.017ms returns 0
T59B4 000:443.271 JLINK_WriteReg(R9, 0x20000198)
T59B4 000:443.282 - 0.017ms returns 0
T59B4 000:443.295 JLINK_WriteReg(R10, 0x00000000)
T59B4 000:443.307 - 0.017ms returns 0
T59B4 000:443.320 JLINK_WriteReg(R11, 0x00000000)
T59B4 000:443.332 - 0.017ms returns 0
T59B4 000:443.345 JLINK_WriteReg(R12, 0x00000000)
T59B4 000:443.356 - 0.017ms returns 0
T59B4 000:443.369 JLINK_WriteReg(R13 (SP), 0x20000800)
T59B4 000:443.382 - 0.018ms returns 0
T59B4 000:443.395 JLINK_WriteReg(R14, 0x20000001)
T59B4 000:443.406 - 0.017ms returns 0
T59B4 000:443.517 JLINK_WriteReg(R15 (PC), 0x20000020)
T59B4 000:443.535 - 0.024ms returns 0
T59B4 000:443.548 JLINK_WriteReg(XPSR, 0x01000000)
T59B4 000:443.560 - 0.017ms returns 0
T59B4 000:443.573 JLINK_WriteReg(MSP, 0x20000800)
T59B4 000:443.585 - 0.017ms returns 0
T59B4 000:443.598 JLINK_WriteReg(PSP, 0x20000800)
T59B4 000:443.610 - 0.017ms returns 0
T59B4 000:443.623 JLINK_WriteReg(CFBP, 0x00000000)
T59B4 000:443.635 - 0.017ms returns 0
T59B4 000:443.648 JLINK_SetBPEx(Addr = 0x20000000, Type = 0xFFFFFFF2)
T59B4 000:443.662 - 0.019ms returns 0x0000000A
T59B4 000:443.675 JLINK_Go()
T59B4 000:443.697   CPU_ReadMem(4 bytes @ 0xE0001000)
T59B4 000:447.474   CPU_WriteMem(4 bytes @ 0xE0001000)
T59B4 000:451.031 - 7.389ms
T59B4 000:451.084 JLINK_IsHalted()
T59B4 000:455.060   CPU_ReadMem(2 bytes @ 0x20000000)
T59B4 000:455.490 - 4.415ms returns TRUE
T59B4 000:455.534 JLINK_ReadReg(R15 (PC))
T59B4 000:455.550 - 0.021ms returns 0x20000000
T59B4 000:455.571 JLINK_ClrBPEx(BPHandle = 0x0000000A)
T59B4 000:455.585 - 0.019ms returns 0x00
T59B4 000:455.599 JLINK_ReadReg(R0)
T59B4 000:455.610 - 0.017ms returns 0x00000001
T59B4 000:455.625 JLINK_HasError()
T59B4 000:455.723 JLINK_WriteReg(R0, 0x00000800)
T59B4 000:455.740 - 0.022ms returns 0
T59B4 000:455.753 JLINK_WriteReg(R1, 0x00000200)
T59B4 000:455.765 - 0.017ms returns 0
T59B4 000:455.779 JLINK_WriteReg(R2, 0x000000FF)
T59B4 000:455.790 - 0.017ms returns 0
T59B4 000:455.803 JLINK_WriteReg(R3, 0x00000000)
T59B4 000:455.815 - 0.017ms returns 0
T59B4 000:455.828 JLINK_WriteReg(R4, 0x00000000)
T59B4 000:455.840 - 0.016ms returns 0
T59B4 000:455.853 JLINK_WriteReg(R5, 0x00000000)
T59B4 000:455.864 - 0.016ms returns 0
T59B4 000:455.877 JLINK_WriteReg(R6, 0x00000000)
T59B4 000:455.888 - 0.016ms returns 0
T59B4 000:455.901 JLINK_WriteReg(R7, 0x00000000)
T59B4 000:455.912 - 0.017ms returns 0
T59B4 000:455.926 JLINK_WriteReg(R8, 0x00000000)
T59B4 000:455.937 - 0.017ms returns 0
T59B4 000:455.950 JLINK_WriteReg(R9, 0x20000198)
T59B4 000:455.961 - 0.016ms returns 0
T59B4 000:455.974 JLINK_WriteReg(R10, 0x00000000)
T59B4 000:455.986 - 0.016ms returns 0
T59B4 000:455.998 JLINK_WriteReg(R11, 0x00000000)
T59B4 000:456.010 - 0.017ms returns 0
T59B4 000:456.023 JLINK_WriteReg(R12, 0x00000000)
T59B4 000:456.034 - 0.016ms returns 0
T59B4 000:456.048 JLINK_WriteReg(R13 (SP), 0x20000800)
T59B4 000:456.060 - 0.018ms returns 0
T59B4 000:456.074 JLINK_WriteReg(R14, 0x20000001)
T59B4 000:456.093 - 0.027ms returns 0
T59B4 000:456.109 JLINK_WriteReg(R15 (PC), 0x200000B0)
T59B4 000:456.121 - 0.018ms returns 0
T59B4 000:456.134 JLINK_WriteReg(XPSR, 0x01000000)
T59B4 000:456.147 - 0.017ms returns 0
T59B4 000:456.159 JLINK_WriteReg(MSP, 0x20000800)
T59B4 000:456.171 - 0.016ms returns 0
T59B4 000:456.184 JLINK_WriteReg(PSP, 0x20000800)
T59B4 000:456.200 - 0.023ms returns 0
T59B4 000:456.215 JLINK_WriteReg(CFBP, 0x00000000)
T59B4 000:456.227 - 0.017ms returns 0
T59B4 000:456.240 JLINK_SetBPEx(Addr = 0x20000000, Type = 0xFFFFFFF2)
T59B4 000:456.254 - 0.020ms returns 0x0000000B
T59B4 000:456.267 JLINK_Go()
T59B4 000:456.286   CPU_ReadMem(4 bytes @ 0xE0001000)
T59B4 000:456.852   CPU_WriteMem(4 bytes @ 0xE0001000)
T59B4 000:460.401 - 4.144ms
T59B4 000:460.429 JLINK_IsHalted()
T59B4 000:468.540   CPU_ReadMem(2 bytes @ 0x20000000)
T59B4 000:468.887 - 8.464ms returns TRUE
T59B4 000:468.905 JLINK_ReadReg(R15 (PC))
T59B4 000:468.918 - 0.016ms returns 0x20000000
T59B4 000:468.928 JLINK_ClrBPEx(BPHandle = 0x0000000B)
T59B4 000:468.938 - 0.013ms returns 0x00
T59B4 000:468.948 JLINK_ReadReg(R0)
T59B4 000:468.957 - 0.013ms returns 0x00000000
T59B4 000:469.540 JLINK_HasError()
T59B4 000:469.560 JLINK_WriteReg(R0, 0x00000A00)
T59B4 000:469.572 - 0.015ms returns 0
T59B4 000:469.582 JLINK_WriteReg(R1, 0x00000200)
T59B4 000:469.590 - 0.012ms returns 0
T59B4 000:469.599 JLINK_WriteReg(R2, 0x000000FF)
T59B4 000:469.607 - 0.011ms returns 0
T59B4 000:469.615 JLINK_WriteReg(R3, 0x00000000)
T59B4 000:469.623 - 0.011ms returns 0
T59B4 000:469.631 JLINK_WriteReg(R4, 0x00000000)
T59B4 000:469.648 - 0.020ms returns 0
T59B4 000:469.657 JLINK_WriteReg(R5, 0x00000000)
T59B4 000:469.664 - 0.011ms returns 0
T59B4 000:469.673 JLINK_WriteReg(R6, 0x00000000)
T59B4 000:469.681 - 0.011ms returns 0
T59B4 000:469.689 JLINK_WriteReg(R7, 0x00000000)
T59B4 000:469.697 - 0.011ms returns 0
T59B4 000:469.706 JLINK_WriteReg(R8, 0x00000000)
T59B4 000:469.714 - 0.011ms returns 0
T59B4 000:469.722 JLINK_WriteReg(R9, 0x20000198)
T59B4 000:469.730 - 0.011ms returns 0
T59B4 000:469.739 JLINK_WriteReg(R10, 0x00000000)
T59B4 000:469.747 - 0.011ms returns 0
T59B4 000:469.755 JLINK_WriteReg(R11, 0x00000000)
T59B4 000:469.763 - 0.011ms returns 0
T59B4 000:469.772 JLINK_WriteReg(R12, 0x00000000)
T59B4 000:469.780 - 0.011ms returns 0
T59B4 000:469.788 JLINK_WriteReg(R13 (SP), 0x20000800)
T59B4 000:469.797 - 0.011ms returns 0
T59B4 000:469.805 JLINK_WriteReg(R14, 0x20000001)
T59B4 000:469.813 - 0.011ms returns 0
T59B4 000:469.822 JLINK_WriteReg(R15 (PC), 0x20000020)
T59B4 000:469.830 - 0.011ms returns 0
T59B4 000:469.839 JLINK_WriteReg(XPSR, 0x01000000)
T59B4 000:469.846 - 0.011ms returns 0
T59B4 000:469.859 JLINK_WriteReg(MSP, 0x20000800)
T59B4 000:469.866 - 0.009ms returns 0
T59B4 000:469.873 JLINK_WriteReg(PSP, 0x20000800)
T59B4 000:469.879 - 0.009ms returns 0
T59B4 000:469.886 JLINK_WriteReg(CFBP, 0x00000000)
T59B4 000:469.893 - 0.009ms returns 0
T59B4 000:469.900 JLINK_SetBPEx(Addr = 0x20000000, Type = 0xFFFFFFF2)
T59B4 000:469.907 - 0.010ms returns 0x0000000C
T59B4 000:469.914 JLINK_Go()
T59B4 000:469.926   CPU_ReadMem(4 bytes @ 0xE0001000)
T59B4 000:470.734   CPU_WriteMem(4 bytes @ 0xE0001000)
T59B4 000:474.223 - 4.312ms
T59B4 000:474.232 JLINK_IsHalted()
T59B4 000:478.048   CPU_ReadMem(2 bytes @ 0x20000000)
T59B4 000:478.404 - 4.182ms returns TRUE
T59B4 000:478.422 JLINK_ReadReg(R15 (PC))
T59B4 000:478.428 - 0.008ms returns 0x20000000
T59B4 000:478.433 JLINK_ClrBPEx(BPHandle = 0x0000000C)
T59B4 000:478.437 - 0.005ms returns 0x00
T59B4 000:478.441 JLINK_ReadReg(R0)
T59B4 000:478.444 - 0.005ms returns 0x00000001
T59B4 000:478.449 JLINK_HasError()
T59B4 000:478.453 JLINK_WriteReg(R0, 0x00000A00)
T59B4 000:478.457 - 0.005ms returns 0
T59B4 000:478.461 JLINK_WriteReg(R1, 0x00000200)
T59B4 000:478.464 - 0.005ms returns 0
T59B4 000:478.468 JLINK_WriteReg(R2, 0x000000FF)
T59B4 000:478.471 - 0.005ms returns 0
T59B4 000:478.475 JLINK_WriteReg(R3, 0x00000000)
T59B4 000:478.479 - 0.005ms returns 0
T59B4 000:478.482 JLINK_WriteReg(R4, 0x00000000)
T59B4 000:478.486 - 0.005ms returns 0
T59B4 000:478.490 JLINK_WriteReg(R5, 0x00000000)
T59B4 000:478.493 - 0.005ms returns 0
T59B4 000:478.497 JLINK_WriteReg(R6, 0x00000000)
T59B4 000:478.500 - 0.005ms returns 0
T59B4 000:478.504 JLINK_WriteReg(R7, 0x00000000)
T59B4 000:478.508 - 0.005ms returns 0
T59B4 000:478.512 JLINK_WriteReg(R8, 0x00000000)
T59B4 000:478.515 - 0.005ms returns 0
T59B4 000:478.519 JLINK_WriteReg(R9, 0x20000198)
T59B4 000:478.522 - 0.005ms returns 0
T59B4 000:478.538 JLINK_WriteReg(R10, 0x00000000)
T59B4 000:478.547 - 0.011ms returns 0
T59B4 000:478.552 JLINK_WriteReg(R11, 0x00000000)
T59B4 000:478.556 - 0.005ms returns 0
T59B4 000:478.560 JLINK_WriteReg(R12, 0x00000000)
T59B4 000:478.563 - 0.005ms returns 0
T59B4 000:478.567 JLINK_WriteReg(R13 (SP), 0x20000800)
T59B4 000:478.571 - 0.005ms returns 0
T59B4 000:478.575 JLINK_WriteReg(R14, 0x20000001)
T59B4 000:478.578 - 0.005ms returns 0
T59B4 000:478.582 JLINK_WriteReg(R15 (PC), 0x200000B0)
T59B4 000:478.586 - 0.005ms returns 0
T59B4 000:478.590 JLINK_WriteReg(XPSR, 0x01000000)
T59B4 000:478.593 - 0.005ms returns 0
T59B4 000:478.597 JLINK_WriteReg(MSP, 0x20000800)
T59B4 000:478.601 - 0.005ms returns 0
T59B4 000:478.605 JLINK_WriteReg(PSP, 0x20000800)
T59B4 000:478.608 - 0.005ms returns 0
T59B4 000:478.612 JLINK_WriteReg(CFBP, 0x00000000)
T59B4 000:478.616 - 0.005ms returns 0
T59B4 000:478.620 JLINK_SetBPEx(Addr = 0x20000000, Type = 0xFFFFFFF2)
T59B4 000:478.624 - 0.006ms returns 0x0000000D
T59B4 000:478.628 JLINK_Go()
T59B4 000:478.637   CPU_ReadMem(4 bytes @ 0xE0001000)
T59B4 000:479.379   CPU_WriteMem(4 bytes @ 0xE0001000)
T59B4 000:482.973 - 4.355ms
T59B4 000:483.051 JLINK_IsHalted()
T59B4 000:490.941   CPU_ReadMem(2 bytes @ 0x20000000)
T59B4 000:491.295 - 8.246ms returns TRUE
T59B4 000:491.304 JLINK_ReadReg(R15 (PC))
T59B4 000:491.309 - 0.006ms returns 0x20000000
T59B4 000:491.313 JLINK_ClrBPEx(BPHandle = 0x0000000D)
T59B4 000:491.317 - 0.005ms returns 0x00
T59B4 000:491.321 JLINK_ReadReg(R0)
T59B4 000:491.325 - 0.005ms returns 0x00000000
T59B4 000:491.608 JLINK_HasError()
T59B4 000:491.617 JLINK_WriteReg(R0, 0x00000C00)
T59B4 000:491.623 - 0.007ms returns 0
T59B4 000:491.627 JLINK_WriteReg(R1, 0x00000200)
T59B4 000:491.631 - 0.005ms returns 0
T59B4 000:491.635 JLINK_WriteReg(R2, 0x000000FF)
T59B4 000:491.639 - 0.005ms returns 0
T59B4 000:491.642 JLINK_WriteReg(R3, 0x00000000)
T59B4 000:491.646 - 0.005ms returns 0
T59B4 000:491.651 JLINK_WriteReg(R4, 0x00000000)
T59B4 000:491.654 - 0.005ms returns 0
T59B4 000:491.658 JLINK_WriteReg(R5, 0x00000000)
T59B4 000:491.662 - 0.005ms returns 0
T59B4 000:491.666 JLINK_WriteReg(R6, 0x00000000)
T59B4 000:491.670 - 0.005ms returns 0
T59B4 000:491.674 JLINK_WriteReg(R7, 0x00000000)
T59B4 000:491.677 - 0.005ms returns 0
T59B4 000:491.681 JLINK_WriteReg(R8, 0x00000000)
T59B4 000:491.685 - 0.005ms returns 0
T59B4 000:491.689 JLINK_WriteReg(R9, 0x20000198)
T59B4 000:491.692 - 0.005ms returns 0
T59B4 000:491.696 JLINK_WriteReg(R10, 0x00000000)
T59B4 000:491.700 - 0.005ms returns 0
T59B4 000:491.704 JLINK_WriteReg(R11, 0x00000000)
T59B4 000:491.708 - 0.005ms returns 0
T59B4 000:491.712 JLINK_WriteReg(R12, 0x00000000)
T59B4 000:491.715 - 0.005ms returns 0
T59B4 000:491.719 JLINK_WriteReg(R13 (SP), 0x20000800)
T59B4 000:491.723 - 0.005ms returns 0
T59B4 000:491.727 JLINK_WriteReg(R14, 0x20000001)
T59B4 000:491.731 - 0.005ms returns 0
T59B4 000:491.735 JLINK_WriteReg(R15 (PC), 0x20000020)
T59B4 000:491.738 - 0.005ms returns 0
T59B4 000:491.742 JLINK_WriteReg(XPSR, 0x01000000)
T59B4 000:491.746 - 0.005ms returns 0
T59B4 000:491.750 JLINK_WriteReg(MSP, 0x20000800)
T59B4 000:491.754 - 0.005ms returns 0
T59B4 000:491.758 JLINK_WriteReg(PSP, 0x20000800)
T59B4 000:491.761 - 0.005ms returns 0
T59B4 000:491.765 JLINK_WriteReg(CFBP, 0x00000000)
T59B4 000:491.769 - 0.005ms returns 0
T59B4 000:491.773 JLINK_SetBPEx(Addr = 0x20000000, Type = 0xFFFFFFF2)
T59B4 000:491.777 - 0.005ms returns 0x0000000E
T59B4 000:491.781 JLINK_Go()
T59B4 000:491.788   CPU_ReadMem(4 bytes @ 0xE0001000)
T59B4 000:492.207   CPU_WriteMem(4 bytes @ 0xE0001000)
T59B4 000:495.873 - 4.096ms
T59B4 000:495.884 JLINK_IsHalted()
T59B4 000:501.261   CPU_ReadMem(2 bytes @ 0x20000000)
T59B4 000:501.606 - 5.727ms returns TRUE
T59B4 000:501.618 JLINK_ReadReg(R15 (PC))
T59B4 000:501.626 - 0.010ms returns 0x20000000
T59B4 000:501.632 JLINK_ClrBPEx(BPHandle = 0x0000000E)
T59B4 000:501.638 - 0.008ms returns 0x00
T59B4 000:501.645 JLINK_ReadReg(R0)
T59B4 000:501.650 - 0.008ms returns 0x00000001
T59B4 000:501.657 JLINK_HasError()
T59B4 000:501.664 JLINK_WriteReg(R0, 0x00000C00)
T59B4 000:501.670 - 0.008ms returns 0
T59B4 000:501.676 JLINK_WriteReg(R1, 0x00000200)
T59B4 000:501.682 - 0.008ms returns 0
T59B4 000:501.688 JLINK_WriteReg(R2, 0x000000FF)
T59B4 000:501.693 - 0.008ms returns 0
T59B4 000:501.700 JLINK_WriteReg(R3, 0x00000000)
T59B4 000:501.705 - 0.007ms returns 0
T59B4 000:501.711 JLINK_WriteReg(R4, 0x00000000)
T59B4 000:501.717 - 0.007ms returns 0
T59B4 000:501.723 JLINK_WriteReg(R5, 0x00000000)
T59B4 000:501.728 - 0.007ms returns 0
T59B4 000:501.734 JLINK_WriteReg(R6, 0x00000000)
T59B4 000:501.740 - 0.008ms returns 0
T59B4 000:501.746 JLINK_WriteReg(R7, 0x00000000)
T59B4 000:501.751 - 0.008ms returns 0
T59B4 000:501.757 JLINK_WriteReg(R8, 0x00000000)
T59B4 000:501.763 - 0.008ms returns 0
T59B4 000:501.769 JLINK_WriteReg(R9, 0x20000198)
T59B4 000:501.774 - 0.008ms returns 0
T59B4 000:501.780 JLINK_WriteReg(R10, 0x00000000)
T59B4 000:501.786 - 0.012ms returns 0
T59B4 000:501.799 JLINK_WriteReg(R11, 0x00000000)
T59B4 000:501.804 - 0.008ms returns 0
T59B4 000:501.816 JLINK_WriteReg(R12, 0x00000000)
T59B4 000:501.824 - 0.010ms returns 0
T59B4 000:501.830 JLINK_WriteReg(R13 (SP), 0x20000800)
T59B4 000:501.836 - 0.008ms returns 0
T59B4 000:501.842 JLINK_WriteReg(R14, 0x20000001)
T59B4 000:501.848 - 0.008ms returns 0
T59B4 000:501.854 JLINK_WriteReg(R15 (PC), 0x200000B0)
T59B4 000:501.859 - 0.008ms returns 0
T59B4 000:501.865 JLINK_WriteReg(XPSR, 0x01000000)
T59B4 000:501.871 - 0.008ms returns 0
T59B4 000:501.877 JLINK_WriteReg(MSP, 0x20000800)
T59B4 000:501.882 - 0.007ms returns 0
T59B4 000:501.889 JLINK_WriteReg(PSP, 0x20000800)
T59B4 000:501.894 - 0.007ms returns 0
T59B4 000:501.900 JLINK_WriteReg(CFBP, 0x00000000)
T59B4 000:501.905 - 0.007ms returns 0
T59B4 000:501.912 JLINK_SetBPEx(Addr = 0x20000000, Type = 0xFFFFFFF2)
T59B4 000:501.918 - 0.008ms returns 0x0000000F
T59B4 000:501.924 JLINK_Go()
T59B4 000:501.933   CPU_ReadMem(4 bytes @ 0xE0001000)
T59B4 000:502.607   CPU_WriteMem(4 bytes @ 0xE0001000)
T59B4 000:506.140 - 4.221ms
T59B4 000:506.153 JLINK_IsHalted()
T59B4 000:514.413   CPU_ReadMem(2 bytes @ 0x20000000)
T59B4 000:514.842 - 8.697ms returns TRUE
T59B4 000:514.875 JLINK_ReadReg(R15 (PC))
T59B4 000:514.890 - 0.020ms returns 0x20000000
T59B4 000:514.909 JLINK_ClrBPEx(BPHandle = 0x0000000F)
T59B4 000:514.923 - 0.019ms returns 0x00
T59B4 000:514.944 JLINK_ReadReg(R0)
T59B4 000:514.957 - 0.019ms returns 0x00000000
T59B4 000:517.195 JLINK_HasError()
T59B4 000:517.242 JLINK_WriteReg(R0, 0x00000E00)
T59B4 000:517.262 - 0.025ms returns 0
T59B4 000:517.276 JLINK_WriteReg(R1, 0x00000200)
T59B4 000:517.289 - 0.018ms returns 0
T59B4 000:517.302 JLINK_WriteReg(R2, 0x000000FF)
T59B4 000:517.314 - 0.017ms returns 0
T59B4 000:517.327 JLINK_WriteReg(R3, 0x00000000)
T59B4 000:517.338 - 0.017ms returns 0
T59B4 000:517.351 JLINK_WriteReg(R4, 0x00000000)
T59B4 000:517.363 - 0.017ms returns 0
T59B4 000:517.376 JLINK_WriteReg(R5, 0x00000000)
T59B4 000:517.387 - 0.017ms returns 0
T59B4 000:517.400 JLINK_WriteReg(R6, 0x00000000)
T59B4 000:517.412 - 0.017ms returns 0
T59B4 000:517.425 JLINK_WriteReg(R7, 0x00000000)
T59B4 000:517.436 - 0.017ms returns 0
T59B4 000:517.449 JLINK_WriteReg(R8, 0x00000000)
T59B4 000:517.461 - 0.017ms returns 0
T59B4 000:517.474 JLINK_WriteReg(R9, 0x20000198)
T59B4 000:517.486 - 0.017ms returns 0
T59B4 000:517.499 JLINK_WriteReg(R10, 0x00000000)
T59B4 000:517.511 - 0.017ms returns 0
T59B4 000:517.524 JLINK_WriteReg(R11, 0x00000000)
T59B4 000:517.535 - 0.017ms returns 0
T59B4 000:517.549 JLINK_WriteReg(R12, 0x00000000)
T59B4 000:517.560 - 0.017ms returns 0
T59B4 000:517.573 JLINK_WriteReg(R13 (SP), 0x20000800)
T59B4 000:517.587 - 0.019ms returns 0
T59B4 000:517.600 JLINK_WriteReg(R14, 0x20000001)
T59B4 000:517.612 - 0.017ms returns 0
T59B4 000:517.625 JLINK_WriteReg(R15 (PC), 0x20000020)
T59B4 000:517.637 - 0.017ms returns 0
T59B4 000:517.650 JLINK_WriteReg(XPSR, 0x01000000)
T59B4 000:517.662 - 0.018ms returns 0
T59B4 000:517.675 JLINK_WriteReg(MSP, 0x20000800)
T59B4 000:517.687 - 0.017ms returns 0
T59B4 000:517.700 JLINK_WriteReg(PSP, 0x20000800)
T59B4 000:517.711 - 0.016ms returns 0
T59B4 000:517.724 JLINK_WriteReg(CFBP, 0x00000000)
T59B4 000:517.736 - 0.017ms returns 0
T59B4 000:517.749 JLINK_SetBPEx(Addr = 0x20000000, Type = 0xFFFFFFF2)
T59B4 000:517.763 - 0.019ms returns 0x00000010
T59B4 000:517.777 JLINK_Go()
T59B4 000:517.799   CPU_ReadMem(4 bytes @ 0xE0001000)
T59B4 000:519.732   CPU_WriteMem(4 bytes @ 0xE0001000)
T59B4 000:523.260 - 5.491ms
T59B4 000:523.287 JLINK_IsHalted()
T59B4 000:527.034   CPU_ReadMem(2 bytes @ 0x20000000)
T59B4 000:527.418 - 4.136ms returns TRUE
T59B4 000:527.432 JLINK_ReadReg(R15 (PC))
T59B4 000:527.439 - 0.010ms returns 0x20000000
T59B4 000:527.446 JLINK_ClrBPEx(BPHandle = 0x00000010)
T59B4 000:527.453 - 0.008ms returns 0x00
T59B4 000:527.459 JLINK_ReadReg(R0)
T59B4 000:527.465 - 0.008ms returns 0x00000001
T59B4 000:527.472 JLINK_HasError()
T59B4 000:527.492 JLINK_WriteReg(R0, 0x00000E00)
T59B4 000:527.499 - 0.009ms returns 0
T59B4 000:527.505 JLINK_WriteReg(R1, 0x00000200)
T59B4 000:527.511 - 0.008ms returns 0
T59B4 000:527.517 JLINK_WriteReg(R2, 0x000000FF)
T59B4 000:527.523 - 0.008ms returns 0
T59B4 000:527.529 JLINK_WriteReg(R3, 0x00000000)
T59B4 000:527.535 - 0.008ms returns 0
T59B4 000:527.541 JLINK_WriteReg(R4, 0x00000000)
T59B4 000:527.547 - 0.008ms returns 0
T59B4 000:527.553 JLINK_WriteReg(R5, 0x00000000)
T59B4 000:527.559 - 0.008ms returns 0
T59B4 000:527.566 JLINK_WriteReg(R6, 0x00000000)
T59B4 000:527.571 - 0.008ms returns 0
T59B4 000:527.577 JLINK_WriteReg(R7, 0x00000000)
T59B4 000:527.583 - 0.008ms returns 0
T59B4 000:527.589 JLINK_WriteReg(R8, 0x00000000)
T59B4 000:527.595 - 0.008ms returns 0
T59B4 000:527.601 JLINK_WriteReg(R9, 0x20000198)
T59B4 000:527.607 - 0.008ms returns 0
T59B4 000:527.613 JLINK_WriteReg(R10, 0x00000000)
T59B4 000:527.619 - 0.008ms returns 0
T59B4 000:527.625 JLINK_WriteReg(R11, 0x00000000)
T59B4 000:527.631 - 0.008ms returns 0
T59B4 000:527.637 JLINK_WriteReg(R12, 0x00000000)
T59B4 000:527.643 - 0.008ms returns 0
T59B4 000:527.649 JLINK_WriteReg(R13 (SP), 0x20000800)
T59B4 000:527.655 - 0.008ms returns 0
T59B4 000:527.661 JLINK_WriteReg(R14, 0x20000001)
T59B4 000:527.667 - 0.008ms returns 0
T59B4 000:527.673 JLINK_WriteReg(R15 (PC), 0x200000B0)
T59B4 000:527.679 - 0.008ms returns 0
T59B4 000:527.685 JLINK_WriteReg(XPSR, 0x01000000)
T59B4 000:527.691 - 0.008ms returns 0
T59B4 000:527.697 JLINK_WriteReg(MSP, 0x20000800)
T59B4 000:527.703 - 0.008ms returns 0
T59B4 000:527.709 JLINK_WriteReg(PSP, 0x20000800)
T59B4 000:527.715 - 0.008ms returns 0
T59B4 000:527.721 JLINK_WriteReg(CFBP, 0x00000000)
T59B4 000:527.727 - 0.008ms returns 0
T59B4 000:527.733 JLINK_SetBPEx(Addr = 0x20000000, Type = 0xFFFFFFF2)
T59B4 000:527.740 - 0.009ms returns 0x00000011
